16.修改了蓝牙协议

DATA     //获取传感器的实时数据

SET_D:1432       ID号：1432
SET_T:5894        备注：589.4度
SET_H:0019       备注：1.9%RH
SET_P:0964       备注：964ug/m3

IP:049.235.207.142:08001      设置IP
IP:192.168.000.032:05557

SET_TIME:2020/08/18-15:43:56
ls  //遍历帐本文件
read_sd:0003,0011  //从第3条记录开始浏览,一共浏览11条

IP?    // 查看当前设置的服务器  IP

16.新增WIFI配网功能

17.新增USART1  MODBUS协议

18.启动信息转到蓝牙显示




、、、、、、、、、、、、、、、、、、、、、、、、、、、、、、、、、、、、、、、、
0001   1      3496
01 03 00 01 00 01 D5 CA 
01 03 02 0D A8 BD 6A 

0002   1      7836
01 03 00 02 00 01 25 CA 
01 03 02 1E 9C B1 8D 

0003   1      645
01 03 00 03 00 01 74 0A 
01 03 02 02 85 78 87 

0001   3
01 03 00 01 00 03 54 0B 
01 03 06 0D A8 1E 9C 02 85 47 75 


、、、、、、、、、、、、、、、、、、、、、、、、、、、、、、、、、、、、、
0001   2
01 03 00 01 00 02 95 CB
01 03 04 00 00 00 00 FA 33

0002   2
01 03 00 02 00 02 65 CB
01 03 04 00 00 00 00 FA 33

0003   2
01 03 00 03 00 02 34 0B
01 03 04 00 00 00 00 FA 33

0004   2
01 03 00 04 00 02 85 CA
01 03 04 00 00 00 06 7A 31
 
0001   6
01 03 00 01 00 06 94 08 
01 03 0C 00 00 00 00 00 00 00 00 00 0C 00 00 53 73 




get back bc28
ATE1
OK
AT+CMEE=1
OK
======== BAND========= 
 AT+NBAND?
+NBAND:8

OK
 
AT+NBAND?
+NBAND:8

OK
我的卡号是 : AT+CIMI
460046671802858

OK
 
AT+CIMAT+CIMAT+CIMAT+CIMAT+CIMATAT+CGATT=1
OK
init PDP OK
AT+CGATT?
+CGATT:1

OK
信号质量:AT+CSQ
+CSQ:10,99

OK

AT+CSQ
+CSQ:10,99

OK
AT+CEREG?
+CEREG:0,1

OK
AT+CGDCONT=1,"IP","HUAWEI.COM"
OK
AT+CGATT=1
OK
AT+CGATT?
+CGATT:1

OK
AT+CGATT?
+CGATT:1

OK
AT+CSCON?
+CSCON:0,1

OK
AT+NSOCL=1
OK
AT+NSOCL=2
+CME ERROR: 4
AT+NSOCL=3
+CME ERROR: 4
AT+NSOCR=STREAM,6,0,1
1

OK
AT+NSOCO=1,49.235.207.142,8001
OK
AT+NSOSD=1,25,EF034d4549313930363035313233340000fa030f000001ed1d
1,25

OK
AT+NSORF=1,100
OK
AT+NSOSD=1,25,EF034d4549313930363035313233340000fa030f000001ed1d
1,25

OK
AT+NSORF=1,100
OK
AT+NSOSD=1,25,EF034d4549313930363035313233340000fa0310000001ee1d
1,25

OK
AT+NSORF=1,100
OK
AT+NSOSD=1,25,EF034d4549313930363035313233340000fa0310000001ee1d
1,25

OK
+NSONMI:1,25
AT+NSORF=1,100
1,49.235.207.142,8001,25,EF064D4549000000000000313233340003E5003000FE00001D,0

OK
AT+NSOSD=1,25,EF034d4549313930363035313233340000fa030f000001ed1d
1,25

OK
AT+NSORF=1,100
OK
AT+NSOSD=1,25,EF034d4549313930363035313233340000fa030f000001ed1d
1,25

OK

-----------EF 06 4D 45 49 00 00 00 00 00 00 31 3233340003E5003000FE00001D,0
45 46 30 36 34 44 34 35 34 39 30 30 30 30 30 30 30 30 30 30 30 30 33 31 
33 32 33 33 33 34 30 30 30 33 45 35 30 30 33 30 30 30 46 45 30 30 30 30 31 44 


                                               


